
**** 05/16/106 08:56:28 ****** NT PSpice 8.0 (July 1997) ****** ID# 305419896 

 Funo de Transferncia, Lista 3, Exerccio 2


 ****     CIRCUIT DESCRIPTION


******************************************************************************



Vs 1 3 DC 12
R1 1 2 3
R2 2 3 6
R3 2 0 7
.TF V(3) Vs
.END

**** 05/16/106 08:56:28 ****** NT PSpice 8.0 (July 1997) ****** ID# 305419896 

 Funo de Transferncia, Lista 3, Exerccio 2


 ****     SMALL SIGNAL BIAS SOLUTION       TEMPERATURE =   27.000 DEG C


******************************************************************************



 NODE   VOLTAGE     NODE   VOLTAGE     NODE   VOLTAGE     NODE   VOLTAGE


(    1)    4.0000  (    2)    0.0000  (    3)   -8.0000  




    VOLTAGE SOURCE CURRENTS
    NAME         CURRENT

    Vs          -1.333E+00

    TOTAL POWER DISSIPATION   1.60E+01  WATTS






 ****     SMALL-SIGNAL CHARACTERISTICS


      V(3)/Vs = -6.667E-01

      INPUT RESISTANCE AT Vs =  9.000E+00

      OUTPUT RESISTANCE AT V(3) =  9.000E+00


          JOB CONCLUDED

          TOTAL JOB TIME            0.00
